
T2014 000:408 SEGGER J-Link V4.80g Log File (0000ms, 0263ms total)
T2014 000:408 DLL Compiled: Feb 13 2014 20:50:02 (0000ms, 0263ms total)
T2014 000:408 Logging started @ 2018-03-23 15:23 (0000ms, 0263ms total)
T2014 000:408 JLINK_SetWarnOutHandler(...) (0000ms, 0263ms total)
T2014 000:408 JLINK_OpenEx(...)
Firmware: J-Link ARM V8 compiled Jan 31 2018 18:34:52
Hardware: V8.00
S/N: 20080643
Feature(s): RDI,FlashDL,FlashBP,JFlash,GDBFull  returns O.K. (0263ms, 0526ms total)
T2014 000:671 JLINK_SetErrorOutHandler(...) (0000ms, 0526ms total)
T2014 000:671 JLINK_ExecCommand("ProjectFile = "E:\YF\智能床垫\智能床垫硬件资料\程序\BMP180\Project\RVMDK\JLinkSettings.ini"", ...)  returns 0x00 (0000ms, 0526ms total)
T2014 000:677 JLINK_ExecCommand("Device = STM32F101C8", ...)Device "STM32F101C8" selected (64 KB flash, 10 KB RAM).  returns 0x00 (0003ms, 0529ms total)
T2014 000:680 JLINK_ExecCommand("DisableConnectionTimeout", ...)  returns 0x01 (0000ms, 0529ms total)
T2014 000:680 JLINK_GetHardwareVersion()  returns 0x13880 (0000ms, 0529ms total)
T2014 000:680 JLINK_GetDLLVersion()  returns 48007 (0000ms, 0529ms total)
T2014 000:680 JLINK_GetFirmwareString(...) (0000ms, 0529ms total)
T2014 000:688 JLINK_GetDLLVersion()  returns 48007 (0000ms, 0529ms total)
T2014 000:688 JLINK_GetCompileDateTime() (0000ms, 0529ms total)
T2014 000:690 JLINK_GetFirmwareString(...) (0000ms, 0529ms total)
T2014 000:692 JLINK_GetHardwareVersion()  returns 0x13880 (0000ms, 0529ms total)
T2014 000:701 JLINK_TIF_Select(JLINKARM_TIF_SWD)  returns 0x00 (0001ms, 0530ms total)
T2014 000:702 JLINK_SetSpeed(2000) (0001ms, 0531ms total)
T2014 000:703 JLINK_GetId() >0x108 TIF>Found SWD-DP with ID 0x1BA01477 >0x0D TIF> >0x28 TIF> >0x0D TIF> >0x28 TIF> >0x0D TIF> >0x21 TIF> >0x0D TIF> >0x28 TIF> >0x0D TIF> >0x28 TIF> >0x0D TIF> >0x28 TIF> >0x0D TIF> >0x21 TIF> >0x0D TIF> >0x21 TIF> >0x0D TIF> >0x28 TIF> >0x0D TIF> >0x21 TIF> >0x0D TIF> >0x21 TIF> >0x108 TIF>Found SWD-DP with ID 0x1BA01477 >0x0D TIF> >0x21 TIF> >0x0D TIF> >0x28 TIF> >0x0D TIF> >0x28 TIF> >0x0D TIF> >0x21 TIF> >0x0D TIF> >0x28 TIF> >0x0D TIF> >0x21 TIF> >0x0D TIF> >0x21 TIF>
 >0x0D TIF> >0x21 TIF> >0x0D TIF> >0x28 TIF> >0x0D TIF> >0x21 TIF> >0x0D TIF> >0x28 TIF> >0x0D TIF> >0x28 TIF> >0x0D TIF> >0x21 TIF> >0x0D TIF> >0x28 TIF> >0x0D TIF> >0x28 TIF> >0x0D TIF> >0x28 TIF> >0x0D TIF> >0x21 TIF> >0x0D TIF> >0x21 TIF> >0x0D TIF> >0x28 TIF> >0x0D TIF> >0x21 TIF> >0x0D TIF> >0x21 TIF>Found Cortex-M3 r1p1, Little endian. >0x0D TIF> >0x28 TIF> -- CPU_WriteMem(4 bytes @ 0xE0002000) -- CPU_ReadMem(4 bytes @ 0xE000EDF0) -- CPU_ReadMem(4 bytes @ 0xE0002000)
FPUnit: 6 code (BP) slots and 2 literal slots -- CPU_ReadMem(4 bytes @ 0xE000EDFC) -- CPU_ReadMem(4 bytes @ 0xE0001000) -- CPU_WriteMem(4 bytes @ 0xE0001000) -- CPU_ReadMem(4 bytes @ 0xE00FF010)TPIU fitted. -- CPU_ReadMem(4 bytes @ 0xE00FF014) -- CPU_ReadMem(4 bytes @ 0xE00FF018) >0x0D TIF> >0x21 TIF>  returns 0x1BA01477 (0054ms, 0585ms total)
T2014 000:757 JLINK_GetDeviceFamily()  returns 3 (0000ms, 0585ms total)
T2014 000:759 JLINK_ReadMem (0xE00FFFF0, 0x0010 Bytes, ...) -- CPU is running -- CPU_ReadMem(16 bytes @ 0xE00FFFF0) -- Data:  0D 00 00 00 10 00 00 00 05 00 00 00 B1 00 00 00  returns 0x00 (0001ms, 0586ms total)
T2014 000:760 JLINK_ReadMem (0xE00FFFD0, 0x0020 Bytes, ...) -- CPU is running -- CPU_ReadMem(32 bytes @ 0xE00FFFD0) -- Data:  00 00 00 00 00 00 00 00 00 00 00 00 00 00 00 00 ...  returns 0x00 (0001ms, 0587ms total)
T2014 000:761 JLINK_ReadMem (0xE00FF000, 0x0018 Bytes, ...) -- CPU is running -- CPU_ReadMem(24 bytes @ 0xE00FF000) -- Data:  03 F0 F0 FF 03 20 F0 FF 03 30 F0 FF 03 10 F0 FF ...  returns 0x00 (0002ms, 0589ms total)
T2014 000:763 JLINK_ReadMemU32(0xE000ED00, 0x0001 Items, ...) -- CPU is running -- CPU_ReadMem(4 bytes @ 0xE000ED00) -- Data:  31 C2 1F 41  returns 0x01 (0000ms, 0589ms total)
T2014 000:763 JLINK_SetResetType(JLINKARM_RESET_TYPE_NORMAL)  returns JLINKARM_RESET_TYPE_NORMAL (0000ms, 0589ms total)
T2014 000:763 JLINK_Reset() -- CPU_WriteMem(4 bytes @ 0xE0002000) -- CPU_ReadMem(4 bytes @ 0xE000EDFC) -- CPU_WriteMem(4 bytes @ 0xE000EDFC) -- CPU_ReadMem(4 bytes @ 0xE0001000) (0018ms, 0607ms total)
T2014 000:781 JLINK_Halt()  returns 0x00 (0000ms, 0607ms total)
T2014 000:781 JLINK_IsHalted()  returns TRUE (0000ms, 0607ms total)
T2014 000:781 JLINK_ReadMemU32(0xE000EDF0, 0x0001 Items, ...) -- CPU_ReadMem(4 bytes @ 0xE000EDF0) -- Data:  03 00 03 00  returns 0x01 (0002ms, 0609ms total)
T2014 000:783 JLINK_WriteU32(0xE000EDF0, 0xA05F0003) -- CPU_WriteMem(4 bytes @ 0xE000EDF0)  returns 0x00 (0000ms, 0609ms total)
T2014 000:783 JLINK_WriteU32(0xE000EDFC, 0x01000000) -- CPU_WriteMem(4 bytes @ 0xE000EDFC)  returns 0x00 (0001ms, 0610ms total)
T2014 000:788 JLINK_GetHWStatus(...)  returns 0x00 (0001ms, 0611ms total)
T2014 000:794 JLINK_GetNumBPUnits(Type = 0xFFFFFF00)  returns 0x06 (0000ms, 0611ms total)
T2014 000:794 JLINK_GetNumBPUnits(Type = 0xF0)  returns 0x2000 (0000ms, 0611ms total)
T2014 000:794 JLINK_GetNumWPUnits()  returns 0x04 (0000ms, 0611ms total)
T2014 000:798 JLINK_GetSpeed()  returns 0x7D0 (0000ms, 0611ms total)
T2014 000:800 JLINK_ReadMemU32(0xE000E004, 0x0001 Items, ...) -- CPU_ReadMem(4 bytes @ 0xE000E004) -- Data:  01 00 00 00  returns 0x01 (0001ms, 0612ms total)
T2014 000:801 JLINK_ReadMemU32(0xE000E004, 0x0001 Items, ...) -- CPU_ReadMem(4 bytes @ 0xE000E004) -- Data:  01 00 00 00  returns 0x01 (0001ms, 0613ms total)
T2014 000:802 JLINK_WriteMem(0xE0001000, 0x001C Bytes, ...) -- Data:  01 00 00 00 00 00 00 00 00 00 00 00 00 00 00 00 ... -- CPU_WriteMem(28 bytes @ 0xE0001000)  returns 0x1C (0001ms, 0614ms total)
T2014 000:803 JLINK_ReadMem (0xE0001000, 0x001C Bytes, ...) -- CPU_ReadMem(28 bytes @ 0xE0001000) -- Data:  01 00 00 40 00 00 00 00 00 00 00 00 00 00 00 00 ...  returns 0x00 (0002ms, 0616ms total)
T2014 000:805 JLINK_Halt()  returns 0x00 (0000ms, 0616ms total)
T2014 000:805 JLINK_IsHalted()  returns TRUE (0000ms, 0616ms total)
T2014 000:807 JLINK_WriteMem(0x20000000, 0x0164 Bytes, ...) -- Data:  00 BE 0A E0 0D 78 2D 06 68 40 08 24 40 00 00 D3 ... -- CPU_WriteMem(356 bytes @ 0x20000000)  returns 0x164 (0004ms, 0620ms total)
T2014 000:811 JLINK_WriteReg(R0, 0x08000000)  returns 0x00 (0000ms, 0620ms total)
T2014 000:811 JLINK_WriteReg(R1, 0x007A1200)  returns 0x00 (0000ms, 0620ms total)
T2014 000:811 JLINK_WriteReg(R2, 0x00000001)  returns 0x00 (0000ms, 0620ms total)
T2014 000:811 JLINK_WriteReg(R3, 0x00000000)  returns 0x00 (0000ms, 0620ms total)
T2014 000:811 JLINK_WriteReg(R4, 0x00000000)  returns 0x00 (0001ms, 0621ms total)
T2014 000:812 JLINK_WriteReg(R5, 0x00000000)  returns 0x00 (0000ms, 0621ms total)
T2014 000:812 JLINK_WriteReg(R6, 0x00000000)  returns 0x00 (0000ms, 0621ms total)
T2014 000:812 JLINK_WriteReg(R7, 0x00000000)  returns 0x00 (0000ms, 0621ms total)
T2014 000:812 JLINK_WriteReg(R8, 0x00000000)  returns 0x00 (0000ms, 0621ms total)
T2014 000:812 JLINK_WriteReg(R9, 0x20000160)  returns 0x00 (0000ms, 0621ms total)
T2014 000:812 JLINK_WriteReg(R10, 0x00000000)  returns 0x00 (0000ms, 0621ms total)
T2014 000:812 JLINK_WriteReg(R11, 0x00000000)  returns 0x00 (0000ms, 0621ms total)
T2014 000:812 JLINK_WriteReg(R12, 0x00000000)  returns 0x00 (0000ms, 0621ms total)
T2014 000:812 JLINK_WriteReg(R13 (SP), 0x20000800)  returns 0x00 (0000ms, 0621ms total)
T2014 000:812 JLINK_WriteReg(R14, 0x20000001)  returns 0x00 (0000ms, 0621ms total)
T2014 000:812 JLINK_WriteReg(R15 (PC), 0x20000038)  returns 0x00 (0000ms, 0621ms total)
T2014 000:812 JLINK_WriteReg(XPSR, 0x01000000)  returns 0x00 (0000ms, 0621ms total)
T2014 000:812 JLINK_WriteReg(MSP, 0x20000800)  returns 0x00 (0000ms, 0621ms total)
T2014 000:812 JLINK_WriteReg(PSP, 0x20000800)  returns 0x00 (0000ms, 0621ms total)
T2014 000:812 JLINK_WriteReg(CFBP, 0x00000000)  returns 0x00 (0000ms, 0621ms total)
T2014 000:812 JLINK_SetBPEx(Addr = 0x20000000, Type = 0xFFFFFFF2) -- CPU_ReadMem(2 bytes @ 0x20000000)  returns 0x00000001 (0001ms, 0622ms total)
T2014 000:813 JLINK_Go() -- CPU_WriteMem(2 bytes @ 0x20000000) -- CPU_WriteMem(4 bytes @ 0xE0002008) -- CPU_WriteMem(4 bytes @ 0xE000200C) -- CPU_WriteMem(4 bytes @ 0xE0002010) -- CPU_WriteMem(4 bytes @ 0xE0002014) -- CPU_WriteMem(4 bytes @ 0xE0002018) -- CPU_WriteMem(4 bytes @ 0xE000201C) -- CPU_WriteMem(4 bytes @ 0xE0001004) (0010ms, 0632ms total)
T2014 000:823 JLINK_IsHalted() -- CPU_ReadMem(2 bytes @ 0x20000000)  returns TRUE (0007ms, 0639ms total)
T2014 000:830 JLINK_ReadReg(R15 (PC))  returns 0x20000000 (0000ms, 0632ms total)
T2014 000:830 JLINK_ClrBPEx(BPHandle = 0x00000001)  returns 0x00 (0000ms, 0632ms total)
T2014 000:830 JLINK_ReadReg(R0)  returns 0x00000000 (0000ms, 0632ms total)
T2014 000:830 JLINK_WriteReg(R0, 0x08000000)  returns 0x00 (0000ms, 0632ms total)
T2014 000:830 JLINK_WriteReg(R1, 0x007A1200)  returns 0x00 (0000ms, 0632ms total)
T2014 000:830 JLINK_WriteReg(R2, 0x00000001)  returns 0x00 (0000ms, 0632ms total)
T2014 000:830 JLINK_WriteReg(R3, 0x00000000)  returns 0x00 (0000ms, 0632ms total)
T2014 000:830 JLINK_WriteReg(R4, 0x00000000)  returns 0x00 (0000ms, 0632ms total)
T2014 000:830 JLINK_WriteReg(R5, 0x00000000)  returns 0x00 (0000ms, 0632ms total)
T2014 000:830 JLINK_WriteReg(R6, 0x00000000)  returns 0x00 (0000ms, 0632ms total)
T2014 000:830 JLINK_WriteReg(R7, 0x00000000)  returns 0x00 (0000ms, 0632ms total)
T2014 000:830 JLINK_WriteReg(R8, 0x00000000)  returns 0x00 (0000ms, 0632ms total)
T2014 000:830 JLINK_WriteReg(R9, 0x20000160)  returns 0x00 (0000ms, 0632ms total)
T2014 000:830 JLINK_WriteReg(R10, 0x00000000)  returns 0x00 (0000ms, 0632ms total)
T2014 000:830 JLINK_WriteReg(R11, 0x00000000)  returns 0x00 (0000ms, 0632ms total)
T2014 000:830 JLINK_WriteReg(R12, 0x00000000)  returns 0x00 (0000ms, 0632ms total)
T2014 000:830 JLINK_WriteReg(R13 (SP), 0x20000800)  returns 0x00 (0000ms, 0632ms total)
T2014 000:830 JLINK_WriteReg(R14, 0x20000001)  returns 0x00 (0000ms, 0632ms total)
T2014 000:830 JLINK_WriteReg(R15 (PC), 0x2000007C)  returns 0x00 (0000ms, 0632ms total)
T2014 000:830 JLINK_WriteReg(XPSR, 0x01000000)  returns 0x00 (0000ms, 0632ms total)
T2014 000:830 JLINK_WriteReg(MSP, 0x20000800)  returns 0x00 (0000ms, 0632ms total)
T2014 000:830 JLINK_WriteReg(PSP, 0x20000800)  returns 0x00 (0000ms, 0632ms total)
T2014 000:830 JLINK_WriteReg(CFBP, 0x00000000)  returns 0x00 (0000ms, 0632ms total)
T2014 000:830 JLINK_SetBPEx(Addr = 0x20000000, Type = 0xFFFFFFF2)  returns 0x00000002 (0000ms, 0632ms total)
T2014 000:830 JLINK_Go() (0002ms, 0634ms total)
T2014 000:832 JLINK_IsHalted()  returns FALSE (0001ms, 0635ms total)
T2014 000:886 JLINK_IsHalted() -- CPU_ReadMem(2 bytes @ 0x20000000)  returns TRUE (0006ms, 0640ms total)
T2014 000:892 JLINK_ReadReg(R15 (PC))  returns 0x20000000 (0000ms, 0634ms total)
T2014 000:892 JLINK_ClrBPEx(BPHandle = 0x00000002)  returns 0x00 (0000ms, 0634ms total)
T2014 000:892 JLINK_ReadReg(R0)  returns 0x00000000 (0000ms, 0634ms total)
T2014 000:943 JLINK_WriteReg(R0, 0x00000001)  returns 0x00 (0000ms, 0634ms total)
T2014 000:943 JLINK_WriteReg(R1, 0x007A1200)  returns 0x00 (0000ms, 0634ms total)
T2014 000:943 JLINK_WriteReg(R2, 0x00000001)  returns 0x00 (0000ms, 0634ms total)
T2014 000:943 JLINK_WriteReg(R3, 0x00000000)  returns 0x00 (0000ms, 0634ms total)
T2014 000:943 JLINK_WriteReg(R4, 0x00000000)  returns 0x00 (0000ms, 0634ms total)
T2014 000:943 JLINK_WriteReg(R5, 0x00000000)  returns 0x00 (0000ms, 0634ms total)
T2014 000:943 JLINK_WriteReg(R6, 0x00000000)  returns 0x00 (0001ms, 0635ms total)
T2014 000:944 JLINK_WriteReg(R7, 0x00000000)  returns 0x00 (0000ms, 0635ms total)
T2014 000:944 JLINK_WriteReg(R8, 0x00000000)  returns 0x00 (0000ms, 0635ms total)
T2014 000:944 JLINK_WriteReg(R9, 0x20000160)  returns 0x00 (0000ms, 0635ms total)
T2014 000:944 JLINK_WriteReg(R10, 0x00000000)  returns 0x00 (0000ms, 0635ms total)
T2014 000:944 JLINK_WriteReg(R11, 0x00000000)  returns 0x00 (0000ms, 0635ms total)
T2014 000:944 JLINK_WriteReg(R12, 0x00000000)  returns 0x00 (0000ms, 0635ms total)
T2014 000:944 JLINK_WriteReg(R13 (SP), 0x20000800)  returns 0x00 (0000ms, 0635ms total)
T2014 000:944 JLINK_WriteReg(R14, 0x20000001)  returns 0x00 (0000ms, 0635ms total)
T2014 000:944 JLINK_WriteReg(R15 (PC), 0x2000006A)  returns 0x00 (0000ms, 0635ms total)
T2014 000:944 JLINK_WriteReg(XPSR, 0x01000000)  returns 0x00 (0000ms, 0635ms total)
T2014 000:944 JLINK_WriteReg(MSP, 0x20000800)  returns 0x00 (0000ms, 0635ms total)
T2014 000:944 JLINK_WriteReg(PSP, 0x20000800)  returns 0x00 (0000ms, 0635ms total)
T2014 000:944 JLINK_WriteReg(CFBP, 0x00000000)  returns 0x00 (0000ms, 0635ms total)
T2014 000:944 JLINK_SetBPEx(Addr = 0x20000000, Type = 0xFFFFFFF2)  returns 0x00000003 (0000ms, 0635ms total)
T2014 000:944 JLINK_Go() (0002ms, 0637ms total)
T2014 000:946 JLINK_IsHalted() -- CPU_ReadMem(2 bytes @ 0x20000000)  returns TRUE (0006ms, 0643ms total)
T2014 000:952 JLINK_ReadReg(R15 (PC))  returns 0x20000000 (0000ms, 0637ms total)
T2014 000:952 JLINK_ClrBPEx(BPHandle = 0x00000003)  returns 0x00 (0000ms, 0637ms total)
T2014 000:952 JLINK_ReadReg(R0)  returns 0x00000000 (0000ms, 0637ms total)
T2014 000:955 JLINK_WriteMem(0x20000000, 0x0164 Bytes, ...) -- Data:  00 BE 0A E0 0D 78 2D 06 68 40 08 24 40 00 00 D3 ... -- CPU_WriteMem(356 bytes @ 0x20000000)  returns 0x164 (0005ms, 0642ms total)
T2014 000:960 JLINK_WriteReg(R0, 0x08000000)  returns 0x00 (0000ms, 0642ms total)
T2014 000:960 JLINK_WriteReg(R1, 0x007A1200)  returns 0x00 (0000ms, 0642ms total)
T2014 000:960 JLINK_WriteReg(R2, 0x00000002)  returns 0x00 (0000ms, 0642ms total)
T2014 000:960 JLINK_WriteReg(R3, 0x00000000)  returns 0x00 (0000ms, 0642ms total)
T2014 000:960 JLINK_WriteReg(R4, 0x00000000)  returns 0x00 (0000ms, 0642ms total)
T2014 000:960 JLINK_WriteReg(R5, 0x00000000)  returns 0x00 (0000ms, 0642ms total)
T2014 000:960 JLINK_WriteReg(R6, 0x00000000)  returns 0x00 (0000ms, 0642ms total)
T2014 000:960 JLINK_WriteReg(R7, 0x00000000)  returns 0x00 (0000ms, 0642ms total)
T2014 000:960 JLINK_WriteReg(R8, 0x00000000)  returns 0x00 (0000ms, 0642ms total)
T2014 000:960 JLINK_WriteReg(R9, 0x20000160)  returns 0x00 (0000ms, 0642ms total)
T2014 000:960 JLINK_WriteReg(R10, 0x00000000)  returns 0x00 (0000ms, 0642ms total)
T2014 000:960 JLINK_WriteReg(R11, 0x00000000)  returns 0x00 (0000ms, 0642ms total)
T2014 000:960 JLINK_WriteReg(R12, 0x00000000)  returns 0x00 (0000ms, 0642ms total)
T2014 000:960 JLINK_WriteReg(R13 (SP), 0x20000800)  returns 0x00 (0000ms, 0642ms total)
T2014 000:960 JLINK_WriteReg(R14, 0x20000001)  returns 0x00 (0000ms, 0642ms total)
T2014 000:960 JLINK_WriteReg(R15 (PC), 0x20000038)  returns 0x00 (0000ms, 0642ms total)
T2014 000:960 JLINK_WriteReg(XPSR, 0x01000000)  returns 0x00 (0000ms, 0642ms total)
T2014 000:960 JLINK_WriteReg(MSP, 0x20000800)  returns 0x00 (0000ms, 0642ms total)
T2014 000:960 JLINK_WriteReg(PSP, 0x20000800)  returns 0x00 (0000ms, 0642ms total)
T2014 000:960 JLINK_WriteReg(CFBP, 0x00000000)  returns 0x00 (0000ms, 0642ms total)
T2014 000:960 JLINK_SetBPEx(Addr = 0x20000000, Type = 0xFFFFFFF2) -- CPU_ReadMem(2 bytes @ 0x20000000)  returns 0x00000004 (0002ms, 0644ms total)
T2014 000:962 JLINK_Go() -- CPU_WriteMem(2 bytes @ 0x20000000) (0002ms, 0646ms total)
T2014 000:964 JLINK_IsHalted() -- CPU_ReadMem(2 bytes @ 0x20000000)  returns TRUE (0007ms, 0653ms total)
T2014 000:971 JLINK_ReadReg(R15 (PC))  returns 0x20000000 (0000ms, 0646ms total)
T2014 000:971 JLINK_ClrBPEx(BPHandle = 0x00000004)  returns 0x00 (0000ms, 0646ms total)
T2014 000:971 JLINK_ReadReg(R0)  returns 0x00000000 (0000ms, 0646ms total)
T2014 000:971 JLINK_WriteMem(0x20000164, 0x0400 Bytes, ...) -- Data:  78 05 00 20 01 01 00 08 1D 4E 00 08 35 06 00 08 ... -- CPU_WriteMem(1024 bytes @ 0x20000164)  returns 0x400 (0012ms, 0658ms total)
T2014 000:983 JLINK_WriteReg(R0, 0x08000000)  returns 0x00 (0000ms, 0658ms total)
T2014 000:983 JLINK_WriteReg(R1, 0x00000400)  returns 0x00 (0000ms, 0658ms total)
T2014 000:983 JLINK_WriteReg(R2, 0x20000164)  returns 0x00 (0000ms, 0658ms total)
T2014 000:983 JLINK_WriteReg(R3, 0x00000000)  returns 0x00 (0000ms, 0658ms total)
T2014 000:983 JLINK_WriteReg(R4, 0x00000000)  returns 0x00 (0000ms, 0658ms total)
T2014 000:983 JLINK_WriteReg(R5, 0x00000000)  returns 0x00 (0000ms, 0658ms total)
T2014 000:983 JLINK_WriteReg(R6, 0x00000000)  returns 0x00 (0000ms, 0658ms total)
T2014 000:983 JLINK_WriteReg(R7, 0x00000000)  returns 0x00 (0000ms, 0658ms total)
T2014 000:983 JLINK_WriteReg(R8, 0x00000000)  returns 0x00 (0000ms, 0658ms total)
T2014 000:983 JLINK_WriteReg(R9, 0x20000160)  returns 0x00 (0000ms, 0658ms total)
T2014 000:983 JLINK_WriteReg(R10, 0x00000000)  returns 0x00 (0000ms, 0658ms total)
T2014 000:983 JLINK_WriteReg(R11, 0x00000000)  returns 0x00 (0000ms, 0658ms total)
T2014 000:983 JLINK_WriteReg(R12, 0x00000000)  returns 0x00 (0001ms, 0659ms total)
T2014 000:984 JLINK_WriteReg(R13 (SP), 0x20000800)  returns 0x00 (0000ms, 0659ms total)
T2014 000:984 JLINK_WriteReg(R14, 0x20000001)  returns 0x00 (0000ms, 0659ms total)
T2014 000:984 JLINK_WriteReg(R15 (PC), 0x200000F4)  returns 0x00 (0000ms, 0659ms total)
T2014 000:984 JLINK_WriteReg(XPSR, 0x01000000)  returns 0x00 (0000ms, 0659ms total)
T2014 000:984 JLINK_WriteReg(MSP, 0x20000800)  returns 0x00 (0000ms, 0659ms total)
T2014 000:984 JLINK_WriteReg(PSP, 0x20000800)  returns 0x00 (0000ms, 0659ms total)
T2014 000:984 JLINK_WriteReg(CFBP, 0x00000000)  returns 0x00 (0000ms, 0659ms total)
T2014 000:984 JLINK_SetBPEx(Addr = 0x20000000, Type = 0xFFFFFFF2)  returns 0x00000005 (0000ms, 0659ms total)
T2014 000:984 JLINK_Go() (0002ms, 0661ms total)
T2014 000:986 JLINK_IsHalted()  returns FALSE (0001ms, 0662ms total)
T2014 001:000 JLINK_IsHalted()  returns FALSE (0000ms, 0661ms total)
T2014 001:002 JLINK_IsHalted()  returns FALSE (0001ms, 0662ms total)
T2014 001:005 JLINK_IsHalted()  returns FALSE (0001ms, 0662ms total)
T2014 001:008 JLINK_IsHalted()  returns FALSE (0000ms, 0661ms total)
T2014 001:010 JLINK_IsHalted()  returns FALSE (0000ms, 0661ms total)
T2014 001:014 JLINK_IsHalted()  returns FALSE (0001ms, 0662ms total)
T2014 001:017 JLINK_IsHalted() -- CPU_ReadMem(2 bytes @ 0x20000000)  returns TRUE (0006ms, 0667ms total)
T2014 001:023 JLINK_ReadReg(R15 (PC))  returns 0x20000000 (0000ms, 0661ms total)
T2014 001:023 JLINK_ClrBPEx(BPHandle = 0x00000005)  returns 0x00 (0000ms, 0661ms total)
T2014 001:023 JLINK_ReadReg(R0)  returns 0x00000000 (0000ms, 0661ms total)
T2014 001:024 JLINK_WriteMem(0x20000164, 0x0400 Bytes, ...) -- Data:  F0 4D A4 E7 06 4C 07 4D 06 E0 E0 68 40 F0 01 03 ... -- CPU_WriteMem(1024 bytes @ 0x20000164)  returns 0x400 (0012ms, 0673ms total)
T2014 001:036 JLINK_WriteReg(R0, 0x08000400)  returns 0x00 (0000ms, 0673ms total)
T2014 001:036 JLINK_WriteReg(R1, 0x00000400)  returns 0x00 (0000ms, 0673ms total)
T2014 001:036 JLINK_WriteReg(R2, 0x20000164)  returns 0x00 (0000ms, 0673ms total)
T2014 001:036 JLINK_WriteReg(R3, 0x00000000)  returns 0x00 (0000ms, 0673ms total)
T2014 001:036 JLINK_WriteReg(R4, 0x00000000)  returns 0x00 (0000ms, 0673ms total)
T2014 001:036 JLINK_WriteReg(R5, 0x00000000)  returns 0x00 (0000ms, 0673ms total)
T2014 001:036 JLINK_WriteReg(R6, 0x00000000)  returns 0x00 (0000ms, 0673ms total)
T2014 001:036 JLINK_WriteReg(R7, 0x00000000)  returns 0x00 (0000ms, 0673ms total)
T2014 001:036 JLINK_WriteReg(R8, 0x00000000)  returns 0x00 (0000ms, 0673ms total)
T2014 001:036 JLINK_WriteReg(R9, 0x20000160)  returns 0x00 (0000ms, 0673ms total)
T2014 001:036 JLINK_WriteReg(R10, 0x00000000)  returns 0x00 (0000ms, 0673ms total)
T2014 001:036 JLINK_WriteReg(R11, 0x00000000)  returns 0x00 (0000ms, 0673ms total)
T2014 001:036 JLINK_WriteReg(R12, 0x00000000)  returns 0x00 (0000ms, 0673ms total)
T2014 001:036 JLINK_WriteReg(R13 (SP), 0x20000800)  returns 0x00 (0000ms, 0673ms total)
T2014 001:036 JLINK_WriteReg(R14, 0x20000001)  returns 0x00 (0000ms, 0673ms total)
T2014 001:036 JLINK_WriteReg(R15 (PC), 0x200000F4)  returns 0x00 (0000ms, 0673ms total)
T2014 001:036 JLINK_WriteReg(XPSR, 0x01000000)  returns 0x00 (0000ms, 0673ms total)
T2014 001:036 JLINK_WriteReg(MSP, 0x20000800)  returns 0x00 (0000ms, 0673ms total)
T2014 001:036 JLINK_WriteReg(PSP, 0x20000800)  returns 0x00 (0000ms, 0673ms total)
T2014 001:036 JLINK_WriteReg(CFBP, 0x00000000)  returns 0x00 (0000ms, 0673ms total)
T2014 001:036 JLINK_SetBPEx(Addr = 0x20000000, Type = 0xFFFFFFF2)  returns 0x00000006 (0000ms, 0673ms total)
T2014 001:036 JLINK_Go() (0002ms, 0675ms total)
T2014 001:038 JLINK_IsHalted()  returns FALSE (0002ms, 0677ms total)
T2014 001:045 JLINK_IsHalted()  returns FALSE (0000ms, 0675ms total)
T2014 001:047 JLINK_IsHalted()  returns FALSE (0000ms, 0675ms total)
T2014 001:049 JLINK_IsHalted()  returns FALSE (0000ms, 0675ms total)
T2014 001:051 JLINK_IsHalted()  returns FALSE (0000ms, 0675ms total)
T2014 001:053 JLINK_IsHalted()  returns FALSE (0001ms, 0676ms total)
T2014 001:056 JLINK_IsHalted()  returns FALSE (0000ms, 0675ms total)
T2014 001:059 JLINK_IsHalted()  returns FALSE (0001ms, 0676ms total)
T2014 001:062 JLINK_IsHalted()  returns FALSE (0001ms, 0676ms total)
T2014 001:064 JLINK_IsHalted()  returns FALSE (0001ms, 0676ms total)
T2014 001:067 JLINK_IsHalted()  returns FALSE (0000ms, 0675ms total)
T2014 001:069 JLINK_IsHalted()  returns FALSE (0000ms, 0675ms total)
T2014 001:071 JLINK_IsHalted() -- CPU_ReadMem(2 bytes @ 0x20000000)  returns TRUE (0006ms, 0681ms total)
T2014 001:077 JLINK_ReadReg(R15 (PC))  returns 0x20000000 (0000ms, 0675ms total)
T2014 001:077 JLINK_ClrBPEx(BPHandle = 0x00000006)  returns 0x00 (0000ms, 0675ms total)
T2014 001:077 JLINK_ReadReg(R0)  returns 0x00000000 (0000ms, 0675ms total)
T2014 001:078 JLINK_WriteMem(0x20000164, 0x0400 Bytes, ...) -- Data:  00 00 22 42 0E 48 10 B5 41 68 21 F4 70 41 41 60 ... -- CPU_WriteMem(1024 bytes @ 0x20000164)  returns 0x400 (0012ms, 0687ms total)
T2014 001:090 JLINK_WriteReg(R0, 0x08000800)  returns 0x00 (0000ms, 0687ms total)
T2014 001:090 JLINK_WriteReg(R1, 0x00000400)  returns 0x00 (0000ms, 0687ms total)
T2014 001:090 JLINK_WriteReg(R2, 0x20000164)  returns 0x00 (0000ms, 0687ms total)
T2014 001:090 JLINK_WriteReg(R3, 0x00000000)  returns 0x00 (0000ms, 0687ms total)
T2014 001:090 JLINK_WriteReg(R4, 0x00000000)  returns 0x00 (0000ms, 0687ms total)
T2014 001:090 JLINK_WriteReg(R5, 0x00000000)  returns 0x00 (0000ms, 0687ms total)
T2014 001:090 JLINK_WriteReg(R6, 0x00000000)  returns 0x00 (0000ms, 0687ms total)
T2014 001:090 JLINK_WriteReg(R7, 0x00000000)  returns 0x00 (0000ms, 0687ms total)
T2014 001:090 JLINK_WriteReg(R8, 0x00000000)  returns 0x00 (0000ms, 0687ms total)
T2014 001:090 JLINK_WriteReg(R9, 0x20000160)  returns 0x00 (0000ms, 0687ms total)
T2014 001:090 JLINK_WriteReg(R10, 0x00000000)  returns 0x00 (0000ms, 0687ms total)
T2014 001:090 JLINK_WriteReg(R11, 0x00000000)  returns 0x00 (0000ms, 0687ms total)
T2014 001:090 JLINK_WriteReg(R12, 0x00000000)  returns 0x00 (0000ms, 0687ms total)
T2014 001:090 JLINK_WriteReg(R13 (SP), 0x20000800)  returns 0x00 (0000ms, 0687ms total)
T2014 001:090 JLINK_WriteReg(R14, 0x20000001)  returns 0x00 (0000ms, 0687ms total)
T2014 001:090 JLINK_WriteReg(R15 (PC), 0x200000F4)  returns 0x00 (0000ms, 0687ms total)
T2014 001:090 JLINK_WriteReg(XPSR, 0x01000000)  returns 0x00 (0000ms, 0687ms total)
T2014 001:090 JLINK_WriteReg(MSP, 0x20000800)  returns 0x00 (0000ms, 0687ms total)
T2014 001:090 JLINK_WriteReg(PSP, 0x20000800)  returns 0x00 (0000ms, 0687ms total)
T2014 001:090 JLINK_WriteReg(CFBP, 0x00000000)  returns 0x00 (0000ms, 0687ms total)
T2014 001:090 JLINK_SetBPEx(Addr = 0x20000000, Type = 0xFFFFFFF2)  returns 0x00000007 (0000ms, 0687ms total)
T2014 001:090 JLINK_Go() (0002ms, 0689ms total)
T2014 001:092 JLINK_IsHalted()  returns FALSE (0001ms, 0690ms total)
T2014 001:103 JLINK_IsHalted()  returns FALSE (0000ms, 0689ms total)
T2014 001:107 JLINK_IsHalted()  returns FALSE (0000ms, 0689ms total)
T2014 001:109 JLINK_IsHalted()  returns FALSE (0000ms, 0689ms total)
T2014 001:111 JLINK_IsHalted()  returns FALSE (0001ms, 0690ms total)
T2014 001:114 JLINK_IsHalted()  returns FALSE (0001ms, 0690ms total)
T2014 001:117 JLINK_IsHalted()  returns FALSE (0001ms, 0690ms total)
T2014 001:120 JLINK_IsHalted()  returns FALSE (0001ms, 0690ms total)
T2014 001:124 JLINK_IsHalted() -- CPU_ReadMem(2 bytes @ 0x20000000)  returns TRUE (0006ms, 0695ms total)
T2014 001:130 JLINK_ReadReg(R15 (PC))  returns 0x20000000 (0000ms, 0689ms total)
T2014 001:130 JLINK_ClrBPEx(BPHandle = 0x00000007)  returns 0x00 (0000ms, 0689ms total)
T2014 001:130 JLINK_ReadReg(R0)  returns 0x00000000 (0000ms, 0689ms total)
T2014 001:130 JLINK_WriteMem(0x20000164, 0x0400 Bytes, ...) -- Data:  95 B2 04 F0 BB F8 26 4C C4 F8 10 B0 66 61 29 0A ... -- CPU_WriteMem(1024 bytes @ 0x20000164)  returns 0x400 (0012ms, 0701ms total)
T2014 001:142 JLINK_WriteReg(R0, 0x08000C00)  returns 0x00 (0000ms, 0701ms total)
T2014 001:142 JLINK_WriteReg(R1, 0x00000400)  returns 0x00 (0000ms, 0701ms total)
T2014 001:142 JLINK_WriteReg(R2, 0x20000164)  returns 0x00 (0000ms, 0701ms total)
T2014 001:142 JLINK_WriteReg(R3, 0x00000000)  returns 0x00 (0000ms, 0701ms total)
T2014 001:142 JLINK_WriteReg(R4, 0x00000000)  returns 0x00 (0000ms, 0701ms total)
T2014 001:142 JLINK_WriteReg(R5, 0x00000000)  returns 0x00 (0000ms, 0701ms total)
T2014 001:142 JLINK_WriteReg(R6, 0x00000000)  returns 0x00 (0000ms, 0701ms total)
T2014 001:142 JLINK_WriteReg(R7, 0x00000000)  returns 0x00 (0000ms, 0701ms total)
T2014 001:142 JLINK_WriteReg(R8, 0x00000000)  returns 0x00 (0000ms, 0701ms total)
T2014 001:142 JLINK_WriteReg(R9, 0x20000160)  returns 0x00 (0000ms, 0701ms total)
T2014 001:142 JLINK_WriteReg(R10, 0x00000000)  returns 0x00 (0000ms, 0701ms total)
T2014 001:142 JLINK_WriteReg(R11, 0x00000000)  returns 0x00 (0000ms, 0701ms total)
T2014 001:142 JLINK_WriteReg(R12, 0x00000000)  returns 0x00 (0000ms, 0701ms total)
T2014 001:142 JLINK_WriteReg(R13 (SP), 0x20000800)  returns 0x00 (0000ms, 0701ms total)
T2014 001:142 JLINK_WriteReg(R14, 0x20000001)  returns 0x00 (0000ms, 0701ms total)
T2014 001:142 JLINK_WriteReg(R15 (PC), 0x200000F4)  returns 0x00 (0000ms, 0701ms total)
T2014 001:142 JLINK_WriteReg(XPSR, 0x01000000)  returns 0x00 (0000ms, 0701ms total)
T2014 001:142 JLINK_WriteReg(MSP, 0x20000800)  returns 0x00 (0000ms, 0701ms total)
T2014 001:142 JLINK_WriteReg(PSP, 0x20000800)  returns 0x00 (0000ms, 0701ms total)
T2014 001:142 JLINK_WriteReg(CFBP, 0x00000000)  returns 0x00 (0000ms, 0701ms total)
T2014 001:142 JLINK_SetBPEx(Addr = 0x20000000, Type = 0xFFFFFFF2)  returns 0x00000008 (0000ms, 0701ms total)
T2014 001:142 JLINK_Go() (0002ms, 0703ms total)
T2014 001:144 JLINK_IsHalted()  returns FALSE (0000ms, 0703ms total)
T2014 001:148 JLINK_IsHalted()  returns FALSE (0000ms, 0703ms total)
T2014 001:150 JLINK_IsHalted()  returns FALSE (0000ms, 0703ms total)
T2014 001:152 JLINK_IsHalted()  returns FALSE (0000ms, 0703ms total)
T2014 001:156 JLINK_IsHalted()  returns FALSE (0000ms, 0703ms total)
T2014 001:158 JLINK_IsHalted()  returns FALSE (0000ms, 0703ms total)
T2014 001:160 JLINK_IsHalted()  returns FALSE (0000ms, 0703ms total)
T2014 001:162 JLINK_IsHalted()  returns FALSE (0001ms, 0704ms total)
T2014 001:165 JLINK_IsHalted()  returns FALSE (0001ms, 0704ms total)
T2014 001:169 JLINK_IsHalted()  returns FALSE (0001ms, 0704ms total)
T2014 001:172 JLINK_IsHalted()  returns FALSE (0000ms, 0703ms total)
T2014 001:174 JLINK_IsHalted()  returns FALSE (0000ms, 0703ms total)
T2014 001:176 JLINK_IsHalted() -- CPU_ReadMem(2 bytes @ 0x20000000)  returns TRUE (0006ms, 0709ms total)
T2014 001:182 JLINK_ReadReg(R15 (PC))  returns 0x20000000 (0000ms, 0703ms total)
T2014 001:182 JLINK_ClrBPEx(BPHandle = 0x00000008)  returns 0x00 (0000ms, 0703ms total)
T2014 001:182 JLINK_ReadReg(R0)  returns 0x00000000 (0000ms, 0703ms total)
T2014 001:183 JLINK_WriteMem(0x20000164, 0x0400 Bytes, ...) -- Data:  2B 20 03 F0 BB FE 00 20 03 F0 A6 FE 00 20 03 F0 ... -- CPU_WriteMem(1024 bytes @ 0x20000164)  returns 0x400 (0011ms, 0714ms total)
T2014 001:194 JLINK_WriteReg(R0, 0x08001000)  returns 0x00 (0000ms, 0714ms total)
T2014 001:194 JLINK_WriteReg(R1, 0x00000400)  returns 0x00 (0000ms, 0714ms total)
T2014 001:194 JLINK_WriteReg(R2, 0x20000164)  returns 0x00 (0000ms, 0714ms total)
T2014 001:194 JLINK_WriteReg(R3, 0x00000000)  returns 0x00 (0000ms, 0714ms total)
T2014 001:194 JLINK_WriteReg(R4, 0x00000000)  returns 0x00 (0000ms, 0714ms total)
T2014 001:194 JLINK_WriteReg(R5, 0x00000000)  returns 0x00 (0000ms, 0714ms total)
T2014 001:194 JLINK_WriteReg(R6, 0x00000000)  returns 0x00 (0000ms, 0714ms total)
T2014 001:194 JLINK_WriteReg(R7, 0x00000000)  returns 0x00 (0000ms, 0714ms total)
T2014 001:194 JLINK_WriteReg(R8, 0x00000000)  returns 0x00 (0000ms, 0714ms total)
T2014 001:194 JLINK_WriteReg(R9, 0x20000160)  returns 0x00 (0000ms, 0714ms total)
T2014 001:194 JLINK_WriteReg(R10, 0x00000000)  returns 0x00 (0000ms, 0714ms total)
T2014 001:194 JLINK_WriteReg(R11, 0x00000000)  returns 0x00 (0000ms, 0714ms total)
T2014 001:194 JLINK_WriteReg(R12, 0x00000000)  returns 0x00 (0000ms, 0714ms total)
T2014 001:194 JLINK_WriteReg(R13 (SP), 0x20000800)  returns 0x00 (0000ms, 0714ms total)
T2014 001:194 JLINK_WriteReg(R14, 0x20000001)  returns 0x00 (0000ms, 0714ms total)
T2014 001:194 JLINK_WriteReg(R15 (PC), 0x200000F4)  returns 0x00 (0000ms, 0714ms total)
T2014 001:194 JLINK_WriteReg(XPSR, 0x01000000)  returns 0x00 (0000ms, 0714ms total)
T2014 001:194 JLINK_WriteReg(MSP, 0x20000800)  returns 0x00 (0000ms, 0714ms total)
T2014 001:194 JLINK_WriteReg(PSP, 0x20000800)  returns 0x00 (0000ms, 0714ms total)
T2014 001:194 JLINK_WriteReg(CFBP, 0x00000000)  returns 0x00 (0000ms, 0714ms total)
T2014 001:194 JLINK_SetBPEx(Addr = 0x20000000, Type = 0xFFFFFFF2)  returns 0x00000009 (0000ms, 0714ms total)
T2014 001:194 JLINK_Go() (0003ms, 0717ms total)
T2014 001:197 JLINK_IsHalted()  returns FALSE (0000ms, 0717ms total)
T2014 001:206 JLINK_IsHalted()  returns FALSE (0001ms, 0718ms total)
T2014 001:209 JLINK_IsHalted()  returns FALSE (0001ms, 0718ms total)
T2014 001:212 JLINK_IsHalted()  returns FALSE (0001ms, 0718ms total)
T2014 001:215 JLINK_IsHalted()  returns FALSE (0000ms, 0717ms total)
T2014 001:219 JLINK_IsHalted()  returns FALSE (0001ms, 0718ms total)
T2014 001:222 JLINK_IsHalted()  returns FALSE (0001ms, 0718ms total)
T2014 001:225 JLINK_IsHalted()  returns FALSE (0001ms, 0718ms total)
T2014 001:228 JLINK_IsHalted() -- CPU_ReadMem(2 bytes @ 0x20000000)  returns TRUE (0006ms, 0723ms total)
T2014 001:234 JLINK_ReadReg(R15 (PC))  returns 0x20000000 (0000ms, 0717ms total)
T2014 001:234 JLINK_ClrBPEx(BPHandle = 0x00000009)  returns 0x00 (0000ms, 0717ms total)
T2014 001:234 JLINK_ReadReg(R0)  returns 0x00000000 (0000ms, 0717ms total)
T2014 001:234 JLINK_WriteMem(0x20000164, 0x0400 Bytes, ...) -- Data:  BD FC 00 20 03 F0 A8 FC 00 20 03 F0 A5 FC 3F 20 ... -- CPU_WriteMem(1024 bytes @ 0x20000164)  returns 0x400 (0011ms, 0728ms total)
T2014 001:245 JLINK_WriteReg(R0, 0x08001400)  returns 0x00 (0000ms, 0728ms total)
T2014 001:245 JLINK_WriteReg(R1, 0x00000400)  returns 0x00 (0000ms, 0728ms total)
T2014 001:245 JLINK_WriteReg(R2, 0x20000164)  returns 0x00 (0000ms, 0728ms total)
T2014 001:245 JLINK_WriteReg(R3, 0x00000000)  returns 0x00 (0000ms, 0728ms total)
T2014 001:245 JLINK_WriteReg(R4, 0x00000000)  returns 0x00 (0000ms, 0728ms total)
T2014 001:245 JLINK_WriteReg(R5, 0x00000000)  returns 0x00 (0000ms, 0728ms total)
T2014 001:245 JLINK_WriteReg(R6, 0x00000000)  returns 0x00 (0000ms, 0728ms total)
T2014 001:245 JLINK_WriteReg(R7, 0x00000000)  returns 0x00 (0000ms, 0728ms total)
T2014 001:245 JLINK_WriteReg(R8, 0x00000000)  returns 0x00 (0000ms, 0728ms total)
T2014 001:245 JLINK_WriteReg(R9, 0x20000160)  returns 0x00 (0000ms, 0728ms total)
T2014 001:245 JLINK_WriteReg(R10, 0x00000000)  returns 0x00 (0000ms, 0728ms total)
T2014 001:245 JLINK_WriteReg(R11, 0x00000000)  returns 0x00 (0001ms, 0729ms total)
T2014 001:246 JLINK_WriteReg(R12, 0x00000000)  returns 0x00 (0000ms, 0729ms total)
T2014 001:246 JLINK_WriteReg(R13 (SP), 0x20000800)  returns 0x00 (0000ms, 0729ms total)
T2014 001:246 JLINK_WriteReg(R14, 0x20000001)  returns 0x00 (0000ms, 0729ms total)
T2014 001:246 JLINK_WriteReg(R15 (PC), 0x200000F4)  returns 0x00 (0000ms, 0729ms total)
T2014 001:246 JLINK_WriteReg(XPSR, 0x01000000)  returns 0x00 (0000ms, 0729ms total)
T2014 001:246 JLINK_WriteReg(MSP, 0x20000800)  returns 0x00 (0000ms, 0729ms total)
T2014 001:246 JLINK_WriteReg(PSP, 0x20000800)  returns 0x00 (0000ms, 0729ms total)
T2014 001:246 JLINK_WriteReg(CFBP, 0x00000000)  returns 0x00 (0000ms, 0729ms total)
T2014 001:246 JLINK_SetBPEx(Addr = 0x20000000, Type = 0xFFFFFFF2)  returns 0x0000000A (0000ms, 0729ms total)
T2014 001:246 JLINK_Go() (0002ms, 0731ms total)
T2014 001:248 JLINK_IsHalted()  returns FALSE (0001ms, 0732ms total)
T2014 001:252 JLINK_IsHalted()  returns FALSE (0001ms, 0732ms total)
T2014 001:255 JLINK_IsHalted()  returns FALSE (0001ms, 0732ms total)
T2014 001:258 JLINK_IsHalted()  returns FALSE (0001ms, 0732ms total)
T2014 001:261 JLINK_IsHalted()  returns FALSE (0001ms, 0732ms total)
T2014 001:266 JLINK_IsHalted()  returns FALSE (0001ms, 0732ms total)
T2014 001:269 JLINK_IsHalted()  returns FALSE (0001ms, 0732ms total)
T2014 001:272 JLINK_IsHalted()  returns FALSE (0001ms, 0732ms total)
T2014 001:275 JLINK_IsHalted()  returns FALSE (0001ms, 0732ms total)
T2014 001:278 JLINK_IsHalted()  returns FALSE (0001ms, 0732ms total)
T2014 001:282 JLINK_IsHalted() -- CPU_ReadMem(2 bytes @ 0x20000000)  returns TRUE (0006ms, 0737ms total)
T2014 001:288 JLINK_ReadReg(R15 (PC))  returns 0x20000000 (0000ms, 0731ms total)
T2014 001:288 JLINK_ClrBPEx(BPHandle = 0x0000000A)  returns 0x00 (0000ms, 0731ms total)
T2014 001:288 JLINK_ReadReg(R0)  returns 0x00000000 (0000ms, 0731ms total)
T2014 001:288 JLINK_WriteMem(0x20000164, 0x0400 Bytes, ...) -- Data:  03 F0 AA FA 00 20 03 F0 A7 FA 1C 20 03 F0 A4 FA ... -- CPU_WriteMem(1024 bytes @ 0x20000164)  returns 0x400 (0012ms, 0743ms total)
T2014 001:300 JLINK_WriteReg(R0, 0x08001800)  returns 0x00 (0000ms, 0743ms total)
T2014 001:300 JLINK_WriteReg(R1, 0x00000400)  returns 0x00 (0000ms, 0743ms total)
T2014 001:300 JLINK_WriteReg(R2, 0x20000164)  returns 0x00 (0000ms, 0743ms total)
T2014 001:300 JLINK_WriteReg(R3, 0x00000000)  returns 0x00 (0000ms, 0743ms total)
T2014 001:300 JLINK_WriteReg(R4, 0x00000000)  returns 0x00 (0000ms, 0743ms total)
T2014 001:300 JLINK_WriteReg(R5, 0x00000000)  returns 0x00 (0000ms, 0743ms total)
T2014 001:300 JLINK_WriteReg(R6, 0x00000000)  returns 0x00 (0000ms, 0743ms total)
T2014 001:300 JLINK_WriteReg(R7, 0x00000000)  returns 0x00 (0000ms, 0743ms total)
T2014 001:300 JLINK_WriteReg(R8, 0x00000000)  returns 0x00 (0000ms, 0743ms total)
T2014 001:300 JLINK_WriteReg(R9, 0x20000160)  returns 0x00 (0000ms, 0743ms total)
T2014 001:300 JLINK_WriteReg(R10, 0x00000000)  returns 0x00 (0000ms, 0743ms total)
T2014 001:300 JLINK_WriteReg(R11, 0x00000000)  returns 0x00 (0000ms, 0743ms total)
T2014 001:300 JLINK_WriteReg(R12, 0x00000000)  returns 0x00 (0000ms, 0743ms total)
T2014 001:300 JLINK_WriteReg(R13 (SP), 0x20000800)  returns 0x00 (0000ms, 0743ms total)
T2014 001:300 JLINK_WriteReg(R14, 0x20000001)  returns 0x00 (0000ms, 0743ms total)
T2014 001:300 JLINK_WriteReg(R15 (PC), 0x200000F4)  returns 0x00 (0000ms, 0743ms total)
T2014 001:301 JLINK_WriteReg(XPSR, 0x01000000)  returns 0x00 (0000ms, 0743ms total)
T2014 001:301 JLINK_WriteReg(MSP, 0x20000800)  returns 0x00 (0000ms, 0743ms total)
T2014 001:301 JLINK_WriteReg(PSP, 0x20000800)  returns 0x00 (0000ms, 0743ms total)
T2014 001:301 JLINK_WriteReg(CFBP, 0x00000000)  returns 0x00 (0000ms, 0743ms total)
T2014 001:301 JLINK_SetBPEx(Addr = 0x20000000, Type = 0xFFFFFFF2)  returns 0x0000000B (0000ms, 0743ms total)
T2014 001:301 JLINK_Go() (0002ms, 0745ms total)
T2014 001:303 JLINK_IsHalted()  returns FALSE (0001ms, 0746ms total)
T2014 001:313 JLINK_IsHalted()  returns FALSE (0000ms, 0745ms total)
T2014 001:315 JLINK_IsHalted()  returns FALSE (0000ms, 0745ms total)
T2014 001:317 JLINK_IsHalted()  returns FALSE (0000ms, 0745ms total)
T2014 001:319 JLINK_IsHalted()  returns FALSE (0000ms, 0745ms total)
T2014 001:321 JLINK_IsHalted()  returns FALSE (0001ms, 0746ms total)
T2014 001:324 JLINK_IsHalted()  returns FALSE (0001ms, 0746ms total)
T2014 001:327 JLINK_IsHalted()  returns FALSE (0001ms, 0746ms total)
T2014 001:331 JLINK_IsHalted()  returns FALSE (0000ms, 0745ms total)
T2014 001:333 JLINK_IsHalted()  returns FALSE (0001ms, 0746ms total)
T2014 001:336 JLINK_IsHalted() -- CPU_ReadMem(2 bytes @ 0x20000000)  returns TRUE (0006ms, 0751ms total)
T2014 001:342 JLINK_ReadReg(R15 (PC))  returns 0x20000000 (0000ms, 0745ms total)
T2014 001:342 JLINK_ClrBPEx(BPHandle = 0x0000000B)  returns 0x00 (0000ms, 0745ms total)
T2014 001:342 JLINK_ReadReg(R0)  returns 0x00000000 (0000ms, 0745ms total)
T2014 001:343 JLINK_WriteMem(0x20000164, 0x0400 Bytes, ...) -- Data:  03 F0 AA F8 00 20 03 F0 A7 F8 BE 20 03 F0 A4 F8 ... -- CPU_WriteMem(1024 bytes @ 0x20000164)  returns 0x400 (0011ms, 0756ms total)
T2014 001:354 JLINK_WriteReg(R0, 0x08001C00)  returns 0x00 (0000ms, 0756ms total)
T2014 001:354 JLINK_WriteReg(R1, 0x00000400)  returns 0x00 (0000ms, 0756ms total)
T2014 001:354 JLINK_WriteReg(R2, 0x20000164)  returns 0x00 (0000ms, 0756ms total)
T2014 001:354 JLINK_WriteReg(R3, 0x00000000)  returns 0x00 (0000ms, 0756ms total)
T2014 001:354 JLINK_WriteReg(R4, 0x00000000)  returns 0x00 (0000ms, 0756ms total)
T2014 001:354 JLINK_WriteReg(R5, 0x00000000)  returns 0x00 (0000ms, 0756ms total)
T2014 001:354 JLINK_WriteReg(R6, 0x00000000)  returns 0x00 (0000ms, 0756ms total)
T2014 001:354 JLINK_WriteReg(R7, 0x00000000)  returns 0x00 (0000ms, 0756ms total)
T2014 001:354 JLINK_WriteReg(R8, 0x00000000)  returns 0x00 (0000ms, 0756ms total)
T2014 001:354 JLINK_WriteReg(R9, 0x20000160)  returns 0x00 (0000ms, 0756ms total)
T2014 001:354 JLINK_WriteReg(R10, 0x00000000)  returns 0x00 (0000ms, 0756ms total)
T2014 001:354 JLINK_WriteReg(R11, 0x00000000)  returns 0x00 (0000ms, 0756ms total)
T2014 001:354 JLINK_WriteReg(R12, 0x00000000)  returns 0x00 (0000ms, 0756ms total)
T2014 001:354 JLINK_WriteReg(R13 (SP), 0x20000800)  returns 0x00 (0000ms, 0756ms total)
T2014 001:354 JLINK_WriteReg(R14, 0x20000001)  returns 0x00 (0000ms, 0756ms total)
T2014 001:354 JLINK_WriteReg(R15 (PC), 0x200000F4)  returns 0x00 (0000ms, 0756ms total)
T2014 001:354 JLINK_WriteReg(XPSR, 0x01000000)  returns 0x00 (0000ms, 0756ms total)
T2014 001:354 JLINK_WriteReg(MSP, 0x20000800)  returns 0x00 (0000ms, 0756ms total)
T2014 001:354 JLINK_WriteReg(PSP, 0x20000800)  returns 0x00 (0000ms, 0756ms total)
T2014 001:354 JLINK_WriteReg(CFBP, 0x00000000)  returns 0x00 (0000ms, 0756ms total)
T2014 001:354 JLINK_SetBPEx(Addr = 0x20000000, Type = 0xFFFFFFF2)  returns 0x0000000C (0000ms, 0756ms total)
T2014 001:354 JLINK_Go() (0002ms, 0758ms total)
T2014 001:356 JLINK_IsHalted()  returns FALSE (0001ms, 0759ms total)
T2014 001:360 JLINK_IsHalted()  returns FALSE (0001ms, 0759ms total)
T2014 001:363 JLINK_IsHalted()  returns FALSE (0001ms, 0759ms total)
T2014 001:366 JLINK_IsHalted()  returns FALSE (0001ms, 0759ms total)
T2014 001:369 JLINK_IsHalted()  returns FALSE (0000ms, 0758ms total)
T2014 001:371 JLINK_IsHalted()  returns FALSE (0000ms, 0758ms total)
T2014 001:374 JLINK_IsHalted()  returns FALSE (0001ms, 0759ms total)
T2014 001:377 JLINK_IsHalted()  returns FALSE (0001ms, 0759ms total)
T2014 001:380 JLINK_IsHalted()  returns FALSE (0001ms, 0759ms total)
T2014 001:383 JLINK_IsHalted()  returns FALSE (0001ms, 0759ms total)
T2014 001:386 JLINK_IsHalted()  returns FALSE (0001ms, 0759ms total)
T2014 001:390 JLINK_IsHalted() -- CPU_ReadMem(2 bytes @ 0x20000000)  returns TRUE (0006ms, 0764ms total)
T2014 001:396 JLINK_ReadReg(R15 (PC))  returns 0x20000000 (0000ms, 0758ms total)
T2014 001:396 JLINK_ClrBPEx(BPHandle = 0x0000000C)  returns 0x00 (0000ms, 0758ms total)
T2014 001:396 JLINK_ReadReg(R0)  returns 0x00000000 (0000ms, 0758ms total)
T2014 001:396 JLINK_WriteMem(0x20000164, 0x0400 Bytes, ...) -- Data:  00 20 02 F0 A9 FE 00 20 02 F0 A6 FE 00 20 02 F0 ... -- CPU_WriteMem(1024 bytes @ 0x20000164)  returns 0x400 (0012ms, 0770ms total)
T2014 001:408 JLINK_WriteReg(R0, 0x08002000)  returns 0x00 (0000ms, 0770ms total)
T2014 001:408 JLINK_WriteReg(R1, 0x00000400)  returns 0x00 (0000ms, 0770ms total)
T2014 001:408 JLINK_WriteReg(R2, 0x20000164)  returns 0x00 (0000ms, 0770ms total)
T2014 001:408 JLINK_WriteReg(R3, 0x00000000)  returns 0x00 (0000ms, 0770ms total)
T2014 001:408 JLINK_WriteReg(R4, 0x00000000)  returns 0x00 (0000ms, 0770ms total)
T2014 001:408 JLINK_WriteReg(R5, 0x00000000)  returns 0x00 (0000ms, 0770ms total)
T2014 001:408 JLINK_WriteReg(R6, 0x00000000)  returns 0x00 (0000ms, 0770ms total)
T2014 001:408 JLINK_WriteReg(R7, 0x00000000)  returns 0x00 (0000ms, 0770ms total)
T2014 001:408 JLINK_WriteReg(R8, 0x00000000)  returns 0x00 (0000ms, 0770ms total)
T2014 001:408 JLINK_WriteReg(R9, 0x20000160)  returns 0x00 (0000ms, 0770ms total)
T2014 001:408 JLINK_WriteReg(R10, 0x00000000)  returns 0x00 (0000ms, 0770ms total)
T2014 001:408 JLINK_WriteReg(R11, 0x00000000)  returns 0x00 (0000ms, 0770ms total)
T2014 001:408 JLINK_WriteReg(R12, 0x00000000)  returns 0x00 (0000ms, 0770ms total)
T2014 001:408 JLINK_WriteReg(R13 (SP), 0x20000800)  returns 0x00 (0000ms, 0770ms total)
T2014 001:408 JLINK_WriteReg(R14, 0x20000001)  returns 0x00 (0000ms, 0770ms total)
T2014 001:408 JLINK_WriteReg(R15 (PC), 0x200000F4)  returns 0x00 (0000ms, 0770ms total)
T2014 001:408 JLINK_WriteReg(XPSR, 0x01000000)  returns 0x00 (0000ms, 0770ms total)
T2014 001:408 JLINK_WriteReg(MSP, 0x20000800)  returns 0x00 (0000ms, 0770ms total)
T2014 001:408 JLINK_WriteReg(PSP, 0x20000800)  returns 0x00 (0000ms, 0770ms total)
T2014 001:408 JLINK_WriteReg(CFBP, 0x00000000)  returns 0x00 (0000ms, 0770ms total)
T2014 001:408 JLINK_SetBPEx(Addr = 0x20000000, Type = 0xFFFFFFF2)  returns 0x0000000D (0000ms, 0770ms total)
T2014 001:408 JLINK_Go() (0003ms, 0773ms total)
T2014 001:411 JLINK_IsHalted()  returns FALSE (0001ms, 0774ms total)
T2014 001:424 JLINK_IsHalted()  returns FALSE (0001ms, 0774ms total)
T2014 001:427 JLINK_IsHalted()  returns FALSE (0000ms, 0773ms total)
T2014 001:429 JLINK_IsHalted()  returns FALSE (0000ms, 0773ms total)
T2014 001:431 JLINK_IsHalted()  returns FALSE (0001ms, 0774ms total)
T2014 001:434 JLINK_IsHalted()  returns FALSE (0000ms, 0773ms total)
T2014 001:438 JLINK_IsHalted()  returns FALSE (0001ms, 0774ms total)
T2014 001:440 JLINK_IsHalted()  returns FALSE (0001ms, 0774ms total)
T2014 001:443 JLINK_IsHalted() -- CPU_ReadMem(2 bytes @ 0x20000000)  returns TRUE (0006ms, 0779ms total)
T2014 001:449 JLINK_ReadReg(R15 (PC))  returns 0x20000000 (0000ms, 0773ms total)
T2014 001:449 JLINK_ClrBPEx(BPHandle = 0x0000000D)  returns 0x00 (0000ms, 0773ms total)
T2014 001:449 JLINK_ReadReg(R0)  returns 0x00000000 (0000ms, 0773ms total)
T2014 001:449 JLINK_WriteMem(0x20000164, 0x0400 Bytes, ...) -- Data:  4D F2 25 10 02 F0 D2 FC 02 21 4D F2 26 10 02 F0 ... -- CPU_WriteMem(1024 bytes @ 0x20000164)  returns 0x400 (0012ms, 0785ms total)
T2014 001:461 JLINK_WriteReg(R0, 0x08002400)  returns 0x00 (0000ms, 0785ms total)
T2014 001:461 JLINK_WriteReg(R1, 0x00000400)  returns 0x00 (0000ms, 0785ms total)
T2014 001:461 JLINK_WriteReg(R2, 0x20000164)  returns 0x00 (0000ms, 0785ms total)
T2014 001:461 JLINK_WriteReg(R3, 0x00000000)  returns 0x00 (0000ms, 0785ms total)
T2014 001:461 JLINK_WriteReg(R4, 0x00000000)  returns 0x00 (0000ms, 0785ms total)
T2014 001:461 JLINK_WriteReg(R5, 0x00000000)  returns 0x00 (0000ms, 0785ms total)
T2014 001:461 JLINK_WriteReg(R6, 0x00000000)  returns 0x00 (0000ms, 0785ms total)
T2014 001:461 JLINK_WriteReg(R7, 0x00000000)  returns 0x00 (0000ms, 0785ms total)
T2014 001:461 JLINK_WriteReg(R8, 0x00000000)  returns 0x00 (0000ms, 0785ms total)
T2014 001:461 JLINK_WriteReg(R9, 0x20000160)  returns 0x00 (0000ms, 0785ms total)
T2014 001:461 JLINK_WriteReg(R10, 0x00000000)  returns 0x00 (0000ms, 0785ms total)
T2014 001:461 JLINK_WriteReg(R11, 0x00000000)  returns 0x00 (0000ms, 0785ms total)
T2014 001:461 JLINK_WriteReg(R12, 0x00000000)  returns 0x00 (0000ms, 0785ms total)
T2014 001:461 JLINK_WriteReg(R13 (SP), 0x20000800)  returns 0x00 (0000ms, 0785ms total)
T2014 001:461 JLINK_WriteReg(R14, 0x20000001)  returns 0x00 (0000ms, 0785ms total)
T2014 001:461 JLINK_WriteReg(R15 (PC), 0x200000F4)  returns 0x00 (0000ms, 0785ms total)
T2014 001:461 JLINK_WriteReg(XPSR, 0x01000000)  returns 0x00 (0000ms, 0785ms total)
T2014 001:461 JLINK_WriteReg(MSP, 0x20000800)  returns 0x00 (0000ms, 0785ms total)
T2014 001:461 JLINK_WriteReg(PSP, 0x20000800)  returns 0x00 (0000ms, 0785ms total)
T2014 001:461 JLINK_WriteReg(CFBP, 0x00000000)  returns 0x00 (0000ms, 0785ms total)
T2014 001:461 JLINK_SetBPEx(Addr = 0x20000000, Type = 0xFFFFFFF2)  returns 0x0000000E (0000ms, 0785ms total)
T2014 001:461 JLINK_Go() (0003ms, 0788ms total)
T2014 001:464 JLINK_IsHalted()  returns FALSE (0001ms, 0789ms total)
T2014 001:469 JLINK_IsHalted()  returns FALSE (0001ms, 0789ms total)
T2014 001:472 JLINK_IsHalted()  returns FALSE (0000ms, 0788ms total)
T2014 001:474 JLINK_IsHalted()  returns FALSE (0001ms, 0789ms total)
T2014 001:477 JLINK_IsHalted()  returns FALSE (0001ms, 0789ms total)
T2014 001:480 JLINK_IsHalted()  returns FALSE (0000ms, 0788ms total)
T2014 001:484 JLINK_IsHalted()  returns FALSE (0001ms, 0789ms total)
T2014 001:487 JLINK_IsHalted()  returns FALSE (0000ms, 0788ms total)
T2014 001:489 JLINK_IsHalted()  returns FALSE (0001ms, 0789ms total)
T2014 001:492 JLINK_IsHalted()  returns FALSE (0000ms, 0788ms total)
T2014 001:494 JLINK_IsHalted()  returns FALSE (0000ms, 0788ms total)
T2014 001:497 JLINK_IsHalted() -- CPU_ReadMem(2 bytes @ 0x20000000)  returns TRUE (0006ms, 0794ms total)
T2014 001:503 JLINK_ReadReg(R15 (PC))  returns 0x20000000 (0000ms, 0788ms total)
T2014 001:503 JLINK_ClrBPEx(BPHandle = 0x0000000E)  returns 0x00 (0000ms, 0788ms total)
T2014 001:503 JLINK_ReadReg(R0)  returns 0x00000000 (0000ms, 0788ms total)
T2014 001:503 JLINK_WriteMem(0x20000164, 0x0400 Bytes, ...) -- Data:  02 F0 D4 FA 02 21 4D F2 24 30 02 F0 CF FA B7 21 ... -- CPU_WriteMem(1024 bytes @ 0x20000164)  returns 0x400 (0012ms, 0800ms total)
T2014 001:515 JLINK_WriteReg(R0, 0x08002800)  returns 0x00 (0000ms, 0800ms total)
T2014 001:515 JLINK_WriteReg(R1, 0x00000400)  returns 0x00 (0000ms, 0800ms total)
T2014 001:515 JLINK_WriteReg(R2, 0x20000164)  returns 0x00 (0000ms, 0800ms total)
T2014 001:515 JLINK_WriteReg(R3, 0x00000000)  returns 0x00 (0000ms, 0800ms total)
T2014 001:515 JLINK_WriteReg(R4, 0x00000000)  returns 0x00 (0000ms, 0800ms total)
T2014 001:515 JLINK_WriteReg(R5, 0x00000000)  returns 0x00 (0000ms, 0800ms total)
T2014 001:515 JLINK_WriteReg(R6, 0x00000000)  returns 0x00 (0000ms, 0800ms total)
T2014 001:515 JLINK_WriteReg(R7, 0x00000000)  returns 0x00 (0000ms, 0800ms total)
T2014 001:515 JLINK_WriteReg(R8, 0x00000000)  returns 0x00 (0000ms, 0800ms total)
T2014 001:515 JLINK_WriteReg(R9, 0x20000160)  returns 0x00 (0000ms, 0800ms total)
T2014 001:515 JLINK_WriteReg(R10, 0x00000000)  returns 0x00 (0000ms, 0800ms total)
T2014 001:515 JLINK_WriteReg(R11, 0x00000000)  returns 0x00 (0000ms, 0800ms total)
T2014 001:515 JLINK_WriteReg(R12, 0x00000000)  returns 0x00 (0000ms, 0800ms total)
T2014 001:515 JLINK_WriteReg(R13 (SP), 0x20000800)  returns 0x00 (0000ms, 0800ms total)
T2014 001:515 JLINK_WriteReg(R14, 0x20000001)  returns 0x00 (0000ms, 0800ms total)
T2014 001:515 JLINK_WriteReg(R15 (PC), 0x200000F4)  returns 0x00 (0000ms, 0800ms total)
T2014 001:515 JLINK_WriteReg(XPSR, 0x01000000)  returns 0x00 (0000ms, 0800ms total)
T2014 001:515 JLINK_WriteReg(MSP, 0x20000800)  returns 0x00 (0000ms, 0800ms total)
T2014 001:515 JLINK_WriteReg(PSP, 0x20000800)  returns 0x00 (0000ms, 0800ms total)
T2014 001:515 JLINK_WriteReg(CFBP, 0x00000000)  returns 0x00 (0000ms, 0800ms total)
T2014 001:515 JLINK_SetBPEx(Addr = 0x20000000, Type = 0xFFFFFFF2)  returns 0x0000000F (0000ms, 0800ms total)
T2014 001:515 JLINK_Go() (0003ms, 0803ms total)
T2014 001:518 JLINK_IsHalted()  returns FALSE (0000ms, 0803ms total)
T2014 001:526 JLINK_IsHalted()  returns FALSE (0001ms, 0804ms total)
T2014 001:530 JLINK_IsHalted()  returns FALSE (0000ms, 0803ms total)
T2014 001:532 JLINK_IsHalted()  returns FALSE (0000ms, 0803ms total)
T2014 001:534 JLINK_IsHalted()  returns FALSE (0000ms, 0803ms total)
T2014 001:536 JLINK_IsHalted()  returns FALSE (0000ms, 0803ms total)
T2014 001:538 JLINK_IsHalted()  returns FALSE (0000ms, 0803ms total)
T2014 001:540 JLINK_IsHalted()  returns FALSE (0000ms, 0803ms total)
T2014 001:542 JLINK_IsHalted()  returns FALSE (0000ms, 0803ms total)
T2014 001:546 JLINK_IsHalted()  returns FALSE (0000ms, 0803ms total)
T2014 001:548 JLINK_IsHalted()  returns FALSE (0000ms, 0803ms total)
T2014 001:550 JLINK_IsHalted() -- CPU_ReadMem(2 bytes @ 0x20000000)  returns TRUE (0006ms, 0809ms total)
T2014 001:556 JLINK_ReadReg(R15 (PC))  returns 0x20000000 (0000ms, 0803ms total)
T2014 001:556 JLINK_ClrBPEx(BPHandle = 0x0000000F)  returns 0x00 (0000ms, 0803ms total)
T2014 001:556 JLINK_ReadReg(R0)  returns 0x00000000 (0000ms, 0803ms total)
T2014 001:556 JLINK_WriteMem(0x20000164, 0x0400 Bytes, ...) -- Data:  4D F2 21 50 02 F0 D2 F8 02 21 4D F2 22 50 02 F0 ... -- CPU_WriteMem(1024 bytes @ 0x20000164)  returns 0x400 (0012ms, 0815ms total)
T2014 001:568 JLINK_WriteReg(R0, 0x08002C00)  returns 0x00 (0000ms, 0815ms total)
T2014 001:568 JLINK_WriteReg(R1, 0x00000400)  returns 0x00 (0000ms, 0815ms total)
T2014 001:568 JLINK_WriteReg(R2, 0x20000164)  returns 0x00 (0000ms, 0815ms total)
T2014 001:568 JLINK_WriteReg(R3, 0x00000000)  returns 0x00 (0000ms, 0815ms total)
T2014 001:568 JLINK_WriteReg(R4, 0x00000000)  returns 0x00 (0000ms, 0815ms total)
T2014 001:568 JLINK_WriteReg(R5, 0x00000000)  returns 0x00 (0000ms, 0815ms total)
T2014 001:568 JLINK_WriteReg(R6, 0x00000000)  returns 0x00 (0000ms, 0815ms total)
T2014 001:568 JLINK_WriteReg(R7, 0x00000000)  returns 0x00 (0000ms, 0815ms total)
T2014 001:568 JLINK_WriteReg(R8, 0x00000000)  returns 0x00 (0000ms, 0815ms total)
